## _script\_python\hexdump_to_addr2value_.py

用于把
```
mek_8q_raite:/ # i2cdump -f -y 8 0x6a
No size specified (using byte-data access)
     0  1  2  3  4  5  6  7  8  9  a  b  c  d  e  f    0123456789abcdef
00: ef 00 00 01 00 00 90 51 2d d4 ff e4 91 f3 50 0b    ?..?..?Q-?.???P?
10: 00 00 f3 0f e4 9b 00 01 00 00 60 00 f4 ff 40 02    ..????.?..`.?.@?
20: 55 00 00 00 00 00 00 bf 00 00 00 00 00 00 00 00    U......?........
30: a4 49 99 99 b6 00 00 00 00 00 00 2e 24 54 c8 22    ?I???.......$T?"
40: 5a 10 00 a0 00 00 65 ff ef 0f ff 00 00 00 05 00    Z?.?..e.??....?.
50: 00 00 05 00 00 00 05 00 00 00 05 90 51 2d 00 00    ..?...?...??Q-..
60: 45 ff 1f 00 00 12 96 00 50 b0 00 00 00 00 00 00    E.?..??.P?......
70: f0 2f 00 00 00 00 00 00 00 00 00 00 00 00 00 00    ?/..............
80: 00 00 00 00 00 00 00 00 00 00 00 00 00 00 00 00    ................
90: 00 00 00 00 00 00 00 00 00 00 00 00 00 00 00 00    ................
a0: 00 00 00 00 00 00 00 00 00 00 00 00 00 00 00 00    ................
b0: 00 00 00 00 00 00 00 00 00 00 00 00 00 00 00 00    ................
c0: 00 00 00 00 00 00 00 00 00 00 00 00 00 00 00 00    ................
d0: 00 00 00 00 00 00 00 00 00 00 00 00 00 00 00 00    ................
e0: 00 00 00 00 00 00 00 00 00 00 00 00 00 00 00 00    ................
f0: 00 00 00 00 00 00 00 00 00 00 00 00 00 00 00 00    ................
```
转成如下格式,方便不同项目的对比:
```
00=ef
01=00
02=00
03=01
04=00
```